Element, I1_1, Ang1_1, I1_2, Ang1_2, I1_3, Ang1_3, I1_4, Ang1_4, Iresid1, AngResid1, I2_1, Ang2_1, I2_2, Ang2_2, I2_3, Ang2_3, I2_4, Ang2_4, Iresid2, AngResid2
Vsource.SOURCE,    11.5302,   176.64,    65.7266,    55.44,    60.5613,  -115.19,          0,     0.00, 4.94819E-11,    53.97,    11.5302,    -3.36,    65.7266,  -124.56,    60.5613,    64.81,          0,     0.00, 4.94819E-11,  -126.03
Transformer.SUB,    11.5302,    -3.36,    65.7266,  -124.56,    60.5613,    64.81,          0,     0.00, 5.82077E-11,     0.00,    422.773,   155.94,    216.517,    40.31,     2938.6,  -123.46,    2822.34,    49.28, 1.14255E-7,  -138.06
Transformer.REG1,    422.773,   -24.06,    422.773,   155.94,          0,     0.00,          0,     0.00, 0.000347266,   -89.99,    405.052,   155.94,    405.052,   -24.06,          0,     0.00,          0,     0.00, 0.000362429,   -90.00
Transformer.REG2,    216.517,  -139.69,    216.517,    40.31,          0,     0.00,          0,     0.00, 0.000347307,   149.98,    208.691,    40.31,    208.691,  -139.69,          0,     0.00,          0,     0.00, 0.000360317,   149.98
Transformer.REG3,     2938.6,    56.54,     2938.6,  -123.46,          0,     0.00,          0,     0.00, 0.000347022,    29.98,    2671.45,  -123.46,    2671.45,    56.54,          0,     0.00,          0,     0.00, 0.000381507,    29.99
Transformer.XFM1,    52.2739,   -51.72,    35.2533,  -163.67,    18.6631,    58.30,    36.0514,   103.41, 0.0000253086,  -150.94,     453.04,   128.28,    305.528,    16.33,    161.747,  -121.70,    312.445,   -76.59, 0.000216859,  -151.62
Capacitor.CAP1,    101.966,    71.65,    104.503,   -17.92,    18.2751,  -170.54,          0,     0.00,    129.152,    28.49,    101.966,  -108.35,    104.503,   162.08,    18.2751,     9.46,          0,     0.00,    129.152,  -151.51
Capacitor.CAP2, 0.00423141,   143.68,          0,     0.00,          0,     0.00,          0,     0.00, 0.00423141,   143.68, 0.00423141,   -36.32,          0,     0.00,          0,     0.00,          0,     0.00, 0.00423141,   -36.32
Line.650632,    405.052,   -24.06,    208.691,  -139.69,    2671.45,    56.54,          0,     0.00,    2560.05,    48.88,    405.053,   155.94,    208.691,    40.31,    2671.46,  -123.46,          0,     0.00,    2560.05,  -131.12
Line.632670,    359.568,   -20.20,    35.2062,  -111.93,    2593.61,    56.58,          0,     0.00,    2665.38,    48.88,    359.569,   159.80,    35.2062,    68.07,    2593.61,  -123.42,          0,     0.00,    2665.38,  -131.12
Line.670671,    351.664,   -19.65,    17.6751,   -41.60,     2568.3,    56.29,          0,     0.00,    2675.44,    48.59,    351.664,   160.35,    17.6743,   138.39,     2568.3,  -123.71,          0,     0.00,    2675.44,  -131.41
Line.671680, 0.00061056,    82.13, 0.000632113,   -28.32, 0.000283322,  -159.91,          0,     0.00, 0.000427742,    29.04, 6.15381E-12,  -101.73, 4.81939E-12,     7.80, 1.13687E-12,   -36.87,          0,     0.00, 7.50382E-12,   -53.78
Line.632633,    52.2737,   -51.72,    35.2531,  -163.67,    18.6629,    58.30,          0,     0.00,    36.0514,   -76.59,    52.2739,   128.28,    35.2533,    16.33,    18.6631,  -121.70,          0,     0.00,    36.0514,   103.41
Line.632645,     59.239,    54.27,    145.342,  -140.51,          0,     0.00,          0,     0.00,    89.3486,  -150.24,    59.2391,  -125.73,    145.342,    39.49,          0,     0.00,          0,     0.00,    89.3486,    29.76
Line.645646,    59.2391,    54.27,    59.2392,  -125.73,          0,     0.00,          0,     0.00, 0.0000978451,   -59.27,    59.2392,  -125.73,    59.2392,    54.27,          0,     0.00,          0,     0.00, 1.28622E-12,   -45.00
Line.692675,    225.748,   -14.79,    82.9144,   -41.37,    26.7496,    97.07,          0,     0.00,    290.198,   -17.22,    225.745,   165.20,    82.8766,   138.61,    26.7499,   -82.95,          0,     0.00,    290.163,   162.78
Line.671684,    79.9162,   -52.88,     2437.3,    53.68,          0,     0.00,          0,     0.00,    2415.74,    51.86,    79.9163,   127.12,     2437.3,  -126.32,          0,     0.00,          0,     0.00,    2415.74,  -128.14
Line.684611,     2437.3,    53.68,          0,     0.00,          0,     0.00,          0,     0.00,     2437.3,    53.68,     2437.3,  -126.32,          0,     0.00,          0,     0.00,          0,     0.00,     2437.3,  -126.32
Line.684652,    79.9163,   -52.88,          0,     0.00,          0,     0.00,          0,     0.00,    79.9163,   -52.88,    79.9387,   127.10,          0,     0.00,          0,     0.00,          0,     0.00,    79.9387,   127.10
Line.671692,    205.009,   -15.97,    106.059,    -8.75,    59.1802,   115.20,          0,     0.00,    277.372,    -3.93,    205.009,   164.03,    106.059,   171.25,    59.1802,   -64.80,          0,     0.00,    277.372,   176.07
Fault.F1_611C,    2437.29,    53.68,          0,     0.00,          0,     0.00,          0,     0.00,    2437.29,    53.68,    2437.29,  -126.32,          0,     0.00,          0,     0.00,          0,     0.00,    2437.29,  -126.32
Load.671,    173.808,   -26.79,    185.155,  -158.85,    146.198,    83.11,          0,     0.00, 7.10543E-15,     0.00,          0,     0.00,          0,     0.00,          0,     0.00,          0,     0.00,          0,     0.00
Load.634A,    699.276,   -44.51,    699.276,   135.49,          0,     0.00,          0,     0.00,          0,     0.00,          0,     0.00,          0,     0.00,          0,     0.00,          0,     0.00,          0,     0.00
Load.634B,    548.728,  -150.81,    548.728,    29.19,          0,     0.00,          0,     0.00,          0,     0.00,          0,     0.00,          0,     0.00,          0,     0.00,          0,     0.00,          0,     0.00
Load.634C,    367.007,    79.55,    367.007,  -100.45,          0,     0.00,          0,     0.00,          0,     0.00,          0,     0.00,          0,     0.00,          0,     0.00,          0,     0.00,          0,     0.00
Load.645,    89.3527,  -150.24,    89.3527,    29.76,          0,     0.00,          0,     0.00,          0,     0.00,          0,     0.00,          0,     0.00,          0,     0.00,          0,     0.00,          0,     0.00
Load.646,    59.2406,  -125.73,    59.2406,    54.27,          0,     0.00,          0,     0.00,          0,     0.00,          0,     0.00,          0,     0.00,          0,     0.00,          0,     0.00,          0,     0.00
Load.692,     44.134,   111.92,     44.134,   -68.08,          0,     0.00,          0,     0.00,          0,     0.00,          0,     0.00,          0,     0.00,          0,     0.00,          0,     0.00,          0,     0.00
Load.675A,    241.232,   -39.74,    241.232,   140.26,          0,     0.00,          0,     0.00,          0,     0.00,          0,     0.00,          0,     0.00,          0,     0.00,          0,     0.00,          0,     0.00
Load.675B,    43.0459,  -149.35,    43.0459,    30.65,          0,     0.00,          0,     0.00,          0,     0.00,          0,     0.00,          0,     0.00,          0,     0.00,          0,     0.00,          0,     0.00
Load.675C,    32.8732,    63.29,    32.8732,  -116.71,          0,     0.00,          0,     0.00,          0,     0.00,          0,     0.00,          0,     0.00,          0,     0.00,          0,     0.00,          0,     0.00
Load.611, 0.00795011,    28.48, 0.00795011,  -151.52,          0,     0.00,          0,     0.00,          0,     0.00,          0,     0.00,          0,     0.00,          0,     0.00,          0,     0.00,          0,     0.00
Load.652,    79.9387,   -52.90,    79.9387,   127.10,          0,     0.00,          0,     0.00,          0,     0.00,          0,     0.00,          0,     0.00,          0,     0.00,          0,     0.00,          0,     0.00
Load.670A,    8.60164,   -43.15,    8.60164,   136.85,          0,     0.00,          0,     0.00,          0,     0.00,          0,     0.00,          0,     0.00,          0,     0.00,          0,     0.00,          0,     0.00
Load.670B,    33.6588,  -141.56,    33.6588,    38.44,          0,     0.00,          0,     0.00,          0,     0.00,          0,     0.00,          0,     0.00,          0,     0.00,          0,     0.00,          0,     0.00
Load.670C,    28.4597,    83.64,    28.4597,   -96.36,          0,     0.00,          0,     0.00,          0,     0.00,          0,     0.00,          0,     0.00,          0,     0.00,          0,     0.00,          0,     0.00
PVSystem.PV_671,    105.998,   130.82,    107.891,    41.29,    28.0652,  -112.24,    125.439,   -90.53,          0,     0.00,          0,     0.00,          0,     0.00,          0,     0.00,          0,     0.00,          0,     0.00
PVSystem.PV_692,     56.532,   131.75,    57.5418,    42.23,    14.9681,  -111.30,    66.9007,   -89.59,          0,     0.00,          0,     0.00,          0,     0.00,          0,     0.00,          0,     0.00,          0,     0.00
PVSystem.PV_634,    256.171,   148.29,    259.898,    44.35,    224.057,   -85.29,    94.0484,   -81.63,          0,     0.00,          0,     0.00,          0,     0.00,          0,     0.00,          0,     0.00,          0,     0.00
Storage.BESS_675,   0.702245,   -18.35,   0.719763,  -107.93,   0.188016,    99.46,   0.830931,   119.89,          0,     0.00,          0,     0.00,          0,     0.00,          0,     0.00,          0,     0.00,          0,     0.00
